<Qucs Dataset 0.0.19>
<indep frequency 100>
  +1.00000000000000000000e+08
  +1.29292929292929291725e+08
  +1.58585858585858583450e+08
  +1.87878787878787875175e+08
  +2.17171717171717166901e+08
  +2.46464646464646458626e+08
  +2.75757575757575750351e+08
  +3.05050505050505042076e+08
  +3.34343434343434333801e+08
  +3.63636363636363625526e+08
  +3.92929292929292917252e+08
  +4.22222222222222208977e+08
  +4.51515151515151500702e+08
  +4.80808080808080792427e+08
  +5.10101010101010084152e+08
  +5.39393939393939375877e+08
  +5.68686868686868667603e+08
  +5.97979797979797959328e+08
  +6.27272727272727251053e+08
  +6.56565656565656542778e+08
  +6.85858585858585834503e+08
  +7.15151515151515126228e+08
  +7.44444444444444417953e+08
  +7.73737373737373709679e+08
  +8.03030303030303001404e+08
  +8.32323232323232293129e+08
  +8.61616161616161584854e+08
  +8.90909090909090876579e+08
  +9.20202020202020168304e+08
  +9.49494949494949460030e+08
  +9.78787878787878751755e+08
  +1.00808080808080804348e+09
  +1.03737373737373733521e+09
  +1.06666666666666662693e+09
  +1.09595959595959591866e+09
  +1.12525252525252532959e+09
  +1.15454545454545450211e+09
  +1.18383838383838367462e+09
  +1.21313131313131308556e+09
  +1.24242424242424249649e+09
  +1.27171717171717166901e+09
  +1.30101010101010084152e+09
  +1.33030303030303025246e+09
  +1.35959595959595966339e+09
  +1.38888888888888883591e+09
  +1.41818181818181800842e+09
  +1.44747474747474741936e+09
  +1.47676767676767683029e+09
  +1.50606060606060600281e+09
  +1.53535353535353517532e+09
  +1.56464646464646458626e+09
  +1.59393939393939399719e+09
  +1.62323232323232316971e+09
  +1.65252525252525234222e+09
  +1.68181818181818175316e+09
  +1.71111111111111116409e+09
  +1.74040404040404033661e+09
  +1.76969696969696950912e+09
  +1.79898989898989892006e+09
  +1.82828282828282833099e+09
  +1.85757575757575750351e+09
  +1.88686868686868667603e+09
  +1.91616161616161608696e+09
  +1.94545454545454549789e+09
  +1.97474747474747467041e+09
  +2.00404040404040384293e+09
  +2.03333333333333325386e+09
  +2.06262626262626266479e+09
  +2.09191919191919183731e+09
  +2.12121212121212100983e+09
  +2.15050505050505065918e+09
  +2.17979797979797983170e+09
  +2.20909090909090900421e+09
  +2.23838383838383817673e+09
  +2.26767676767676734924e+09
  +2.29696969696969699860e+09
  +2.32626262626262617111e+09
  +2.35555555555555534363e+09
  +2.38484848484848499298e+09
  +2.41414141414141416550e+09
  +2.44343434343434333801e+09
  +2.47272727272727251053e+09
  +2.50202020202020168304e+09
  +2.53131313131313133240e+09
  +2.56060606060606050491e+09
  +2.58989898989898967743e+09
  +2.61919191919191932678e+09
  +2.64848484848484849930e+09
  +2.67777777777777767181e+09
  +2.70707070707070684433e+09
  +2.73636363636363601685e+09
  +2.76565656565656566620e+09
  +2.79494949494949483871e+09
  +2.82424242424242401123e+09
  +2.85353535353535366058e+09
  +2.88282828282828283310e+09
  +2.91212121212121200562e+09
  +2.94141414141414117813e+09
  +2.97070707070707035065e+09
  +3.00000000000000000000e+09
</indep>
<dep S22dB frequency>
  -inf
  -inf
  -inf
  -inf
  -inf
  -inf
  -inf
  -inf
  -inf
  -inf
  -inf
  -inf
  -inf
  -inf
  -inf
  -inf
  -inf
  -inf
  -inf
  -inf
  -inf
  -inf
  -inf
  -inf
  -inf
  -inf
  -inf
  -inf
  -inf
  -inf
  -inf
  -inf
  -inf
  -inf
  -inf
  -inf
  -inf
  -inf
  -inf
  -inf
  -inf
  -inf
  -inf
  -inf
  -inf
  -inf
  -inf
  -inf
  -inf
  -inf
  -inf
  -inf
  -inf
  -inf
  -inf
  -inf
  -inf
  -inf
  -inf
  -inf
  -inf
  -inf
  -inf
  -inf
  -inf
  -inf
  -inf
  -inf
  -inf
  -inf
  -inf
  -inf
  -inf
  -inf
  -inf
  -inf
  -inf
  -inf
  -inf
  -inf
  -inf
  -inf
  -inf
  -inf
  -inf
  -inf
  -inf
  -inf
  -inf
  -inf
  -inf
  -inf
  -inf
  -inf
  -inf
  -inf
  -inf
  -inf
  -inf
  -inf
</dep>
<dep S21dB frequency>
  -inf
  -inf
  -inf
  -inf
  -inf
  -inf
  -inf
  -inf
  -inf
  -inf
  -inf
  -inf
  -inf
  -inf
  -inf
  -inf
  -inf
  -inf
  -inf
  -inf
  -inf
  -inf
  -inf
  -inf
  -inf
  -inf
  -inf
  -inf
  -inf
  -inf
  -inf
  -inf
  -inf
  -inf
  -inf
  -inf
  -inf
  -inf
  -inf
  -inf
  -inf
  -inf
  -inf
  -inf
  -inf
  -inf
  -inf
  -inf
  -inf
  -inf
  -inf
  -inf
  -inf
  -inf
  -inf
  -inf
  -inf
  -inf
  -inf
  -inf
  -inf
  -inf
  -inf
  -inf
  -inf
  -inf
  -inf
  -inf
  -inf
  -inf
  -inf
  -inf
  -inf
  -inf
  -inf
  -inf
  -inf
  -inf
  -inf
  -inf
  -inf
  -inf
  -inf
  -inf
  -inf
  -inf
  -inf
  -inf
  -inf
  -inf
  -inf
  -inf
  -inf
  -inf
  -inf
  -inf
  -inf
  -inf
  -inf
  -inf
</dep>
<dep S11dB frequency>
  -1.16561529042294165226e-01
  -1.71297908334076043335e-01
  -2.20180607419223878241e-01
  -2.63002440514038371422e-01
  -3.26567603439587295089e-01
  -4.04272609764296353418e-01
  -4.77199248275652021523e-01
  -5.51282650657490380652e-01
  -6.51145018684471166281e-01
  -7.47667806949763202873e-01
  -8.40571593736251676532e-01
  -9.48370738030039683863e-01
  -1.05981156979715773758e+00
  -1.16891922539624082411e+00
  -1.28145765219116447575e+00
  -1.40382528280043294977e+00
  -1.52498563983196655514e+00
  -1.64473503913201035687e+00
  -1.76982895718457489131e+00
  -1.89505997021623029397e+00
  -2.01982360001787242254e+00
  -2.14414686818772537436e+00
  -2.26854604354591948834e+00
  -2.39296761956761461221e+00
  -2.51720996151489995185e+00
  -2.64079131168424918741e+00
  -2.76477768275266422293e+00
  -2.88909979852270737410e+00
  -3.00824265925592637672e+00
  -3.12547657620388719124e+00
  -3.24327199919274677953e+00
  -3.36100672245910914171e+00
  -3.47788763057995042871e+00
  -3.59551721135977109256e+00
  -3.71386894813147350192e+00
  -3.82577475143147438530e+00
  -3.93719999093345407459e+00
  -4.04926302945354166241e+00
  -4.15639578734772285884e+00
  -4.25725537652275232148e+00
  -4.35862882763673731290e+00
  -4.46021236516459040899e+00
  -4.55436442790701079275e+00
  -4.64906024480697421808e+00
  -4.74429004884805127773e+00
  -4.83760673596371848504e+00
  -4.92997436414437295582e+00
  -5.02288046611716243461e+00
  -5.11457125270172152653e+00
  -5.20000684493610521031e+00
  -5.28581211296306729963e+00
  -5.37197512504173602110e+00
  -5.44839322723508878710e+00
  -5.52240179236292227927e+00
  -5.59660911833101959445e+00
  -5.66974551457244846375e+00
  -5.74106882733145695852e+00
  -5.81266204707126288298e+00
  -5.88451891329234477723e+00
  -5.95277060202924257482e+00
  -6.02108544634159326137e+00
  -6.08959289179611040765e+00
  -6.15398615216570021857e+00
  -6.21493762544476702203e+00
  -6.27589263373088268594e+00
  -6.33558598471277178987e+00
  -6.38743324474119411605e+00
  -6.43926199460349479864e+00
  -6.49106404469161457627e+00
  -6.54046343151454223630e+00
  -6.58893512032195083350e+00
  -6.63737679652813472586e+00
  -6.68642577866707554790e+00
  -6.73686923314392238638e+00
  -6.78727060498957701640e+00
  -6.83762149575134170476e+00
  -6.87982118677288490005e+00
  -6.92088800483468968849e+00
  -6.96173885485679289076e+00
  -6.99985291388607411278e+00
  -7.03508095839364155921e+00
  -7.07011992081580231684e+00
  -7.10493934000109561566e+00
  -7.13925781969958705986e+00
  -7.17340353404479014188e+00
  -7.20737022392607951105e+00
  -7.24067833369281466105e+00
  -7.27347044369268402875e+00
  -7.30597180753884245519e+00
  -7.33605857526937299440e+00
  -7.35918851128778772619e+00
  -7.38200323268788061171e+00
  -7.40449709801298983081e+00
  -7.42092775353195577281e+00
  -7.43579922771821966165e+00
  -7.45029960106534616671e+00
  -7.46806794795819239852e+00
  -7.49068066982353286676e+00
  -7.51299781307195235769e+00
  -7.53501419204199240909e+00
</dep>
<dep S[1,1] frequency>
  +9.82355708447153364027e-01-j9.21680583569574746194e-02
  +9.73417784872049773881e-01-j1.17399980066662551481e-01
  +9.64479861296946516802e-01-j1.42631901776367614465e-01
  +9.55541937721843259723e-01-j1.67863823486072705204e-01
  +9.43997851921487440841e-01-j1.90868221019026035323e-01
  +9.30614122197424342708e-01-j2.12300248544860403754e-01
  +9.17230392473361244576e-01-j2.33732276070694883208e-01
  +9.03364945310071498774e-01-j2.54402195269921527210e-01
  +8.87187254438495664921e-01-j2.71413994501430999584e-01
  +8.71009563566919498001e-01-j2.88425793732940471958e-01
  +8.54831872695343442103e-01-j3.05437592964449888822e-01
  +8.37799226606770197634e-01-j3.19249242143367029101e-01
  +8.20494549312788978845e-01-j3.32042661760095503265e-01
  +8.03189872018807982101e-01-j3.44836081376824088451e-01
  +7.85830056730619785910e-01-j3.56304895161316248497e-01
  +7.68365479253438121710e-01-j3.65256957864558751137e-01
  +7.50900901776256457509e-01-j3.74209020567801253776e-01
  +7.33436324299074682287e-01-j3.83161083271044033971e-01
  +7.16910354079492329049e-01-j3.89023009720099954833e-01
  +7.00453910323435846585e-01-j3.94656037187364194807e-01
  +6.83997466567379253100e-01-j4.00289064654628656825e-01
  +6.68209010212548304430e-01-j4.04790887959630141246e-01
  +6.53044008765527705940e-01-j4.08236920713186124399e-01
  +6.37879007318507107449e-01-j4.11682953466742329596e-01
  +6.22845897906613044093e-01-j4.14946152680828295178e-01
  +6.08955852799149544019e-01-j4.16624794552840960193e-01
  +5.95065807691685710878e-01-j4.18303436424853514186e-01
  +5.81175762584222210805e-01-j4.19982078296866179201e-01
  +5.68513394023364537766e-01-j4.20748656610617055573e-01
  +5.56403479908479825511e-01-j4.21104806323150171465e-01
  +5.44293565793594558144e-01-j4.21460956035683231846e-01
  +5.32444974717947272502e-01-j4.21560196744444226624e-01
  +5.21282356620299314187e-01-j4.20985051318303549195e-01
  +5.10119738522651022805e-01-j4.20409905892162871766e-01
  +4.98957120425002897957e-01-j4.19834760466022194336e-01
  +4.88650786978051920872e-01-j4.19074049842901030782e-01
  +4.78481459075212833820e-01-j4.18283648788262962803e-01
  +4.68312131172373358190e-01-j4.17493247733624950335e-01
  +4.58725312118637262859e-01-j4.16649618471621963067e-01
  +4.49855427033028498762e-01-j4.15740477569785160661e-01
  +4.40985541947419568132e-01-j4.14831336667948469277e-01
  +4.32156341680716593601e-01-j4.13907989001125020678e-01
  +4.24466316343380611897e-01-j4.12586851914671037811e-01
  +4.16776291006044685705e-01-j4.11265714828217276988e-01
  +4.09086265668708648491e-01-j4.09944577741763405143e-01
  +4.01739874655877737819e-01-j4.08510978225453291746e-01
  +3.94603482396911120489e-01-j4.07008651668675613955e-01
  +3.87467090137944669692e-01-j4.05506325111897769631e-01
  +3.80428990340954842342e-01-j4.04064626024575435093e-01
  +3.73767678314875728685e-01-j4.02855332236832897053e-01
  +3.67106366288796559516e-01-j4.01646038449090303502e-01
  +3.60445054262717112792e-01-j4.00436744661347709950e-01
  +3.54474518038064789760e-01-j3.99443540859012347077e-01
  +3.48684184196393354149e-01-j3.98506708357218075722e-01
  +3.42893850354721640983e-01-j3.97569875855423915390e-01
  +3.37355958372082209706e-01-j3.96517341402731315902e-01
  +3.32231153067858997474e-01-j3.95275476484932553056e-01
  +3.27106347763635840753e-01-j3.94033611567133790210e-01
  +3.21981542459412573010e-01-j3.92791746649335027364e-01
  +3.17050435694415599919e-01-j3.91681300205536653269e-01
  +3.12126246734390933035e-01-j3.90575547278666945772e-01
  +3.07202057774366210641e-01-j3.89469794351797182763e-01
  +3.02346713295370661534e-01-j3.88619159776458000799e-01
  +2.97547304957211267151e-01-j3.87975808861737436750e-01
  +2.92747896619051983791e-01-j3.87332457947016983724e-01
  +2.88049468954546750155e-01-j3.86700630748429863282e-01
  +2.83982170500379327294e-01-j3.86140826775677903360e-01
  +2.79914872046212237500e-01-j3.85581022802925943438e-01
  +2.75847573592045036683e-01-j3.85021218830173928005e-01
  +2.72007176016720420009e-01-j3.84458150225867156813e-01
  +2.68253216871430888446e-01-j3.83893837952396177471e-01
  +2.64499257726141356883e-01-j3.83329525678925420173e-01
  +2.60711330437481514366e-01-j3.82746774882677609497e-01
  +2.56847918385776197159e-01-j3.82123049591370000932e-01
  +2.52984506334070935463e-01-j3.81499324300062336857e-01
  +2.49121094282365646011e-01-j3.80875599008754561758e-01
  +2.45358386326978455960e-01-j3.80688751633496191840e-01
  +2.41607298075012688621e-01-j3.80552313248551210556e-01
  +2.37856209823046810259e-01-j3.80415874863606284784e-01
  +2.34331481774818856101e-01-j3.80291658836863888382e-01
  +2.31049282516309628654e-01-j3.80180538193910622091e-01
  +2.27767083257800651008e-01-j3.80069417550956856200e-01
  +2.24495191152906364840e-01-j3.79953595154080558949e-01
  +2.21362445621810816077e-01-j3.79774299079247645849e-01
  +2.18229700090715406091e-01-j3.79595003004414621728e-01
  +2.15096954559620107128e-01-j3.79415706929581764140e-01
  +2.11788650080125595565e-01-j3.79361590010677318663e-01
  +2.08387946154105330177e-01-j3.79373356858051014040e-01
  +2.04987242228085175810e-01-j3.79385123705424542884e-01
  +2.01677466829474627552e-01-j3.79467075040255896745e-01
  +1.98653466802723138729e-01-j3.79769606192811914891e-01
  +1.95629466775971511128e-01-j3.80072137345368155081e-01
  +1.92605466749220050060e-01-j3.80374668497924006694e-01
  +1.89690754636601843774e-01-j3.80936656917263527511e-01
  +1.86798810839428286457e-01-j3.81552698933849576690e-01
  +1.83906867042254729139e-01-j3.82168740950435514847e-01
  +1.81010353022222653108e-01-j3.82590530673928341798e-01
  +1.78107364519807631620e-01-j3.82737129648872298482e-01
  +1.75204376017392776665e-01-j3.82883728623816088632e-01
  +1.72301387514977838444e-01-j3.83030327598759989804e-01
</dep>
